time	V(v+)	V(v-)	V(vdd)	V(vout)	V(vref)
Step Information: Run=0  (Step: 1/16)
0.000000000000000e+00	-5.279242e-08	8.776230e-21	4.955583e-10	1.558742e-06	3.903397e-07
1.867297155739665e-15	-5.409324e-08	1.423232e-20	8.036623e-10	2.515583e-06	6.303405e-07
4.944373095832172e-15	-5.414906e-08	2.322329e-20	1.311380e-09	4.042872e-06	1.014057e-06
8.188566491083603e-15	-5.413659e-08	3.270257e-20	1.846672e-09	5.554076e-06	1.394582e-06
1.467695328158647e-14	-5.413920e-08	5.166112e-20	2.917256e-09	8.323208e-06	2.094146e-06
2.765372686259220e-14	-5.413417e-08	8.957823e-20	5.058423e-09	1.297649e-05	3.277286e-06
5.360727402460365e-14	-5.412696e-08	1.654124e-19	9.340758e-09	1.961281e-05	4.985637e-06
1.055143683486266e-13	-5.410028e-08	3.170809e-19	1.790543e-08	2.664584e-05	6.838906e-06
2.093285569966724e-13	-5.403850e-08	6.204179e-19	3.503477e-08	3.127216e-05	8.109768e-06
4.169569342927641e-13	-5.389423e-08	1.227093e-18	6.929345e-08	3.414695e-05	8.908837e-06
8.322136888849473e-13	-5.357218e-08	2.440459e-18	1.378108e-07	3.980549e-05	1.043971e-05
1.662727198069314e-12	-5.277574e-08	4.867328e-18	2.748455e-07	5.098008e-05	1.351807e-05
3.323754216438047e-12	-5.060561e-08	9.722444e-18	5.489150e-07	7.265556e-05	1.960897e-05
6.645808253175514e-12	-4.402990e-08	1.944767e-17	1.097054e-06	1.135350e-04	3.162710e-05
1.328991632665045e-11	-2.264392e-08	3.907576e-17	2.193332e-06	1.862488e-04	5.494278e-05
2.525323789672867e-11	3.989226e-08	7.613654e-17	4.167280e-06	2.917580e-04	9.467988e-05
4.917988103688512e-11	2.361773e-07	1.698057e-16	8.115176e-06	4.328584e-04	1.662040e-04
9.703316731719801e-11	8.115634e-07	5.688638e-16	1.601097e-05	5.639208e-04	2.827212e-04
9.721254766947925e-11	8.140895e-07	5.710357e-16	1.604057e-05	5.641373e-04	2.830942e-04
9.757130837404173e-11	8.191466e-07	5.753941e-16	1.609976e-05	5.645777e-04	2.838427e-04
9.828882978316669e-11	8.292819e-07	5.841987e-16	1.621815e-05	5.654540e-04	2.853370e-04
9.972387260141660e-11	8.496360e-07	6.021632e-16	1.645493e-05	5.671640e-04	2.883058e-04
1.025939582379164e-10	8.906717e-07	6.395479e-16	1.692850e-05	5.704382e-04	2.941710e-04
1.083341295109161e-10	9.740019e-07	7.204072e-16	1.787563e-05	5.764366e-04	3.056133e-04
1.198144720569154e-10	1.145335e-06	9.085987e-16	1.976988e-05	5.865819e-04	3.274005e-04
1.427751571489140e-10	1.504316e-06	1.407197e-15	2.355840e-05	6.014736e-04	3.669505e-04
1.886965273329113e-10	2.274140e-06	3.013495e-15	3.113542e-05	6.193307e-04	4.324986e-04
2.805392677009058e-10	3.959145e-06	9.458428e-15	4.628947e-05	6.387678e-04	5.245805e-04
4.589624970426378e-10	7.570637e-06	3.827036e-14	7.572931e-05	6.678574e-04	6.220225e-04
7.586544436636957e-10	1.421253e-05	1.446699e-13	1.251785e-04	7.173525e-04	6.971678e-04
1.358038336905811e-09	2.889611e-05	5.799166e-13	2.240768e-04	8.160066e-04	7.969106e-04
1.909226098894768e-09	4.387009e-05	1.216373e-12	3.150228e-04	9.068643e-04	8.874051e-04
3.011601622872681e-09	7.791831e-05	3.017639e-12	4.969148e-04	1.088418e-03	1.069105e-03
5.216352670828508e-09	1.616981e-04	8.305399e-12	8.606987e-04	1.451694e-03	1.432273e-03
9.521396518258413e-09	3.592089e-04	2.330275e-11	1.571031e-03	1.833755e-03	1.832330e-03
1.793024778297811e-08	8.054762e-04	6.431124e-11	2.958491e-03	2.525021e-03	2.509999e-03
2.823839425493552e-08	1.432735e-03	1.331682e-10	4.659336e-03	3.380045e-03	3.367119e-03
2.856052383218419e-08	1.453598e-03	1.356704e-10	4.712487e-03	3.405326e-03	3.389846e-03
2.920478298668153e-08	1.495437e-03	1.407141e-10	4.818790e-03	3.458428e-03	3.441224e-03
2.936584777530586e-08	1.505940e-03	1.419897e-10	4.845365e-03	3.471822e-03	3.454844e-03
2.968797735255454e-08	1.526977e-03	1.445506e-10	4.898517e-03	3.498482e-03	3.481339e-03
3.033223650705187e-08	1.569226e-03	1.497356e-10	5.004819e-03	3.597664e-03	3.488068e-03
3.162075481604655e-08	1.654382e-03	1.604316e-10	5.217425e-03	3.815001e-03	3.481105e-03
3.419779143403590e-08	1.827265e-03	1.835270e-10	5.642636e-03	4.236378e-03	3.485166e-03
3.935186467001461e-08	2.182451e-03	2.373495e-10	6.493058e-03	5.091673e-03	3.480010e-03
4.966001114197203e-08	2.924036e-03	3.760542e-10	8.193903e-03	6.791560e-03	3.487060e-03
7.027630408588687e-08	4.493277e-03	7.777793e-10	1.159559e-02	1.020704e-02	3.487540e-03
1.115088899737165e-07	8.241076e-03	2.079671e-09	1.839897e-02	1.704631e-02	5.640581e-03
1.514444898772993e-07	1.287764e-02	3.976203e-09	2.498834e-02	2.370864e-02	9.780996e-03
1.792081902047882e-07	1.644414e-02	5.664745e-09	2.956935e-02	2.835355e-02	1.222321e-02
2.105573782660287e-07	2.043384e-02	7.937765e-09	3.474197e-02	3.362418e-02	1.483465e-02
2.560606881602943e-07	2.621401e-02	1.193141e-08	4.225001e-02	4.129872e-02	1.878906e-02
3.361259036735283e-07	3.632673e-02	2.096722e-08	5.546077e-02	5.490853e-02	2.524946e-02
4.833855879717895e-07	5.470175e-02	4.418645e-08	7.975862e-02	7.930282e-02	3.757723e-02
5.178480729816499e-07	5.895408e-02	5.107360e-08	8.544493e-02	8.498819e-02	4.032707e-02
5.867730430013709e-07	6.747130e-02	6.577159e-08	9.681755e-02	9.635585e-02	4.601578e-02
6.040042855063012e-07	6.960367e-02	6.979249e-08	9.966071e-02	9.919778e-02	4.743829e-02
6.083120961325337e-07	7.013671e-02	7.080493e-08	1.003715e-01	9.990826e-02	4.779312e-02
6.169277173849989e-07	7.120270e-02	7.284425e-08	1.017931e-01	1.013292e-01	4.850297e-02
6.190816226981151e-07	7.146917e-02	7.335949e-08	1.021485e-01	1.016845e-01	4.868064e-02
6.233894333243477e-07	7.200213e-02	7.439358e-08	1.028593e-01	1.023950e-01	4.903618e-02
6.244663859809058e-07	7.213537e-02	7.465346e-08	1.030370e-01	1.025726e-01	4.912510e-02
6.266202912940221e-07	7.240186e-02	7.517411e-08	1.033923e-01	1.029278e-01	4.930292e-02
6.271587676223012e-07	7.246847e-02	7.530462e-08	1.034812e-01	1.030166e-01	4.934737e-02
6.282357202788593e-07	7.260172e-02	7.556585e-08	1.036589e-01	1.031943e-01	4.943626e-02
6.285049584429988e-07	7.263503e-02	7.563124e-08	1.037033e-01	1.032387e-01	4.945848e-02
6.290434347712779e-07	7.270166e-02	7.576208e-08	1.037922e-01	1.033275e-01	4.950291e-02
6.291780538533476e-07	7.271831e-02	7.579481e-08	1.038144e-01	1.033497e-01	4.951402e-02
6.292117086238651e-07	7.272247e-02	7.580299e-08	1.038199e-01	1.033552e-01	4.951680e-02
6.292790181648999e-07	7.273080e-02	7.581937e-08	1.038310e-01	1.033663e-01	4.952235e-02
6.292958455501587e-07	7.273288e-02	7.582345e-08	1.038338e-01	1.033691e-01	4.952374e-02
6.293295003206761e-07	7.273705e-02	7.583164e-08	1.038394e-01	1.033747e-01	4.952652e-02
6.293968098617110e-07	7.274538e-02	7.584801e-08	1.038505e-01	1.033858e-01	4.953207e-02
6.295314289437808e-07	7.276203e-02	7.588076e-08	1.038727e-01	1.034080e-01	4.954318e-02
6.298006671079203e-07	7.279534e-02	7.594627e-08	1.039171e-01	1.034524e-01	4.956540e-02
6.303391434361993e-07	7.286196e-02	7.607738e-08	1.040060e-01	1.035412e-01	4.960983e-02
6.314160960927576e-07	7.299521e-02	7.633994e-08	1.041837e-01	1.037188e-01	4.969867e-02
6.335700014058738e-07	7.326169e-02	7.686642e-08	1.045391e-01	1.040740e-01	4.987635e-02
6.378778120321064e-07	7.379466e-02	7.792478e-08	1.052498e-01	1.047845e-01	5.023169e-02
6.464934332845715e-07	7.486057e-02	8.006316e-08	1.066714e-01	1.062055e-01	5.094249e-02
6.637246757895017e-07	7.699239e-02	8.442652e-08	1.095146e-01	1.090474e-01	5.236417e-02
6.981871607993622e-07	8.125599e-02	9.349965e-08	1.152009e-01	1.147313e-01	5.520739e-02
7.671121308190831e-07	8.978314e-02	1.130315e-07	1.265735e-01	1.260990e-01	6.089395e-02
9.049620708585249e-07	1.068374e-01	1.576378e-07	1.493187e-01	1.488345e-01	7.226696e-02
1.180661950937409e-06	1.409459e-01	2.690202e-07	1.948092e-01	1.943055e-01	9.501306e-02
1.732061711095176e-06	2.091630e-01	5.804648e-07	2.857902e-01	2.852474e-01	1.405052e-01
2.732061711095176e-06	3.328791e-01	1.446954e-06	4.507902e-01	4.501767e-01	2.230082e-01
3.732061711095176e-06	4.565953e-01	2.702335e-06	6.157902e-01	6.151061e-01	3.055112e-01
5.732061711095176e-06	7.040279e-01	6.379769e-06	9.457902e-01	9.449652e-01	4.705173e-01
6.732061711095176e-06	8.277442e-01	8.801821e-06	1.110790e+00	1.109895e+00	5.530203e-01
9.732061711095175e-06	1.198891e+00	1.840129e-05	1.605790e+00	1.604680e+00	8.005294e-01
1.073206171109517e-05	1.322603e+00	2.237887e-05	1.770790e+00	1.769599e+00	8.830324e-01
1.553220641429718e-05	1.916432e+00	4.688503e-05	2.562814e+00	2.561231e+00	1.279059e+00
1.653220641429718e-05	2.040143e+00	5.311803e-05	2.727814e+00	2.726150e+00	1.361562e+00
1.999999999699662e-05	2.469146e+00	7.774513e-05	3.300000e+00	3.298053e+00	1.647665e+00
2.036715770489536e-05	2.473718e+00	8.060032e-05	3.300000e+00	3.298069e+00	1.650116e+00
2.110147312069284e-05	2.474636e+00	8.631071e-05	3.300000e+00	3.298070e+00	1.650604e+00
2.257010395228780e-05	2.473863e+00	9.773144e-05	3.300000e+00	3.298069e+00	1.650191e+00
2.412928557133229e-05	2.474557e+00	1.098563e-04	3.300000e+00	3.298070e+00	1.650563e+00
2.724764880942126e-05	2.473916e+00	1.341059e-04	3.300000e+00	3.298069e+00	1.650219e+00
3.348437528559921e-05	2.474532e+00	1.826045e-04	3.300000e+00	3.298070e+00	1.650550e+00
4.595782823795511e-05	2.473928e+00	2.795996e-04	3.300000e+00	3.298069e+00	1.650225e+00
7.090473414266690e-05	2.474526e+00	4.735813e-04	3.300000e+00	3.298070e+00	1.650547e+00
1.207985459520905e-04	2.473931e+00	8.615104e-04	3.300000e+00	3.298069e+00	1.650226e+00
2.205861695709377e-04	2.474525e+00	1.637232e-03	3.300000e+00	3.298070e+00	1.650546e+00
4.201614168086321e-04	2.473931e+00	3.188127e-03	3.300000e+00	3.298069e+00	1.650227e+00
8.193119112840210e-04	2.474524e+00	6.287729e-03	3.300000e+00	3.298070e+00	1.650546e+00
1.617612900234798e-03	2.473932e+00	1.247819e-02	3.300000e+00	3.298069e+00	1.650227e+00
3.214214878136354e-03	2.474524e+00	2.482422e-02	3.300000e+00	3.298070e+00	1.650546e+00
6.143902378136354e-03	2.473932e+00	4.735811e-02	3.300000e+00	3.298069e+00	1.650227e+00
9.073589878136354e-03	2.474524e+00	6.973687e-02	3.300000e+00	3.298070e+00	1.650546e+00
1.200327737813635e-02	2.473932e+00	9.196157e-02	3.300000e+00	3.298069e+00	1.650227e+00
1.493296487813635e-02	2.474525e+00	1.140333e-01	3.300000e+00	3.298071e+00	1.650546e+00
1.786265237813635e-02	2.473932e+00	1.359530e-01	3.300000e+00	3.298069e+00	1.650227e+00
2.079233987813635e-02	2.474525e+00	1.577219e-01	3.300000e+00	3.298071e+00	1.650546e+00
2.372202737813635e-02	2.473932e+00	1.793409e-01	3.300000e+00	3.298070e+00	1.650227e+00
2.665171487813635e-02	2.474525e+00	2.008110e-01	3.300000e+00	3.298071e+00	1.650546e+00
2.958140237813635e-02	2.473932e+00	2.221334e-01	3.300000e+00	3.298070e+00	1.650227e+00
3.251108987813636e-02	2.474525e+00	2.433090e-01	3.300000e+00	3.298071e+00	1.650546e+00
3.544077737813636e-02	2.473932e+00	2.643388e-01	3.300000e+00	3.298070e+00	1.650227e+00
3.837046487813636e-02	2.474525e+00	2.852238e-01	3.300000e+00	3.298071e+00	1.650546e+00
4.130015237813636e-02	2.473933e+00	3.059650e-01	3.300000e+00	3.298070e+00	1.650227e+00
4.422983987813636e-02	2.474525e+00	3.265634e-01	3.300000e+00	3.298072e+00	1.650546e+00
4.715952737813636e-02	2.473933e+00	3.470201e-01	3.300000e+00	3.298070e+00	1.650227e+00
5.008921487813636e-02	2.474525e+00	3.673359e-01	3.300000e+00	3.298072e+00	1.650546e+00
5.301890237813636e-02	2.473933e+00	3.875119e-01	3.300000e+00	3.298071e+00	1.650227e+00
5.594858987813636e-02	2.474525e+00	4.075489e-01	3.300000e+00	3.298072e+00	1.650546e+00
5.887827737813636e-02	2.473933e+00	4.274481e-01	3.300000e+00	3.298071e+00	1.650227e+00
6.180796487813636e-02	2.474525e+00	4.472102e-01	3.300000e+00	3.298072e+00	1.650546e+00
6.473765237813636e-02	2.473933e+00	4.668363e-01	3.300000e+00	3.298071e+00	1.650227e+00
6.766733987813636e-02	2.474525e+00	4.863273e-01	3.300000e+00	3.298072e+00	1.650546e+00
7.059702737813636e-02	2.473933e+00	5.056841e-01	3.300000e+00	3.298071e+00	1.650227e+00
7.352671487813636e-02	2.474525e+00	5.249076e-01	3.300000e+00	3.298072e+00	1.650546e+00
7.645640237813636e-02	2.473933e+00	5.439988e-01	3.300000e+00	3.298071e+00	1.650227e+00
7.938608987813636e-02	2.474525e+00	5.629586e-01	3.300000e+00	3.298073e+00	1.650546e+00
8.231577737813636e-02	2.473933e+00	5.817878e-01	3.300000e+00	3.298072e+00	1.650227e+00
8.524546487813636e-02	2.474525e+00	6.004875e-01	3.300000e+00	3.298073e+00	1.650546e+00
8.817515237813636e-02	2.473933e+00	6.190583e-01	3.300000e+00	3.298072e+00	1.650227e+00
9.110483987813636e-02	2.474525e+00	6.375014e-01	3.300000e+00	3.298073e+00	1.650546e+00
9.403452737813636e-02	2.473933e+00	6.558174e-01	3.300000e+00	3.298072e+00	1.650227e+00
9.696421487813636e-02	2.474525e+00	6.740074e-01	3.300000e+00	3.298073e+00	1.650546e+00
9.989390237813636e-02	2.473934e+00	6.920722e-01	3.300000e+00	3.298072e+00	1.650227e+00
1.028235898781364e-01	2.474525e+00	7.100126e-01	3.300000e+00	3.298073e+00	1.650546e+00
1.057532773781364e-01	2.473934e+00	7.278295e-01	3.300000e+00	3.298072e+00	1.650227e+00
1.086829648781364e-01	2.474525e+00	7.455238e-01	3.300000e+00	3.298074e+00	1.650546e+00
1.116126523781364e-01	2.473934e+00	7.630962e-01	3.300000e+00	3.298072e+00	1.650227e+00
1.145423398781364e-01	2.474526e+00	7.805476e-01	3.300000e+00	3.298074e+00	1.650546e+00
1.174720273781364e-01	2.473934e+00	7.978789e-01	3.300000e+00	3.298072e+00	1.650227e+00
1.204017148781364e-01	2.474526e+00	8.150909e-01	3.300000e+00	3.298074e+00	1.650546e+00
1.233314023781364e-01	2.473934e+00	8.321844e-01	3.300000e+00	3.298073e+00	1.650227e+00
1.262610898781364e-01	2.474526e+00	8.491603e-01	3.300000e+00	3.298074e+00	1.650546e+00
1.291907773781364e-01	2.473934e+00	8.660192e-01	3.300000e+00	3.298073e+00	1.650227e+00
1.321204648781364e-01	2.474526e+00	8.827621e-01	3.300000e+00	3.298074e+00	1.650546e+00
1.350501523781364e-01	2.473934e+00	8.993898e-01	3.300000e+00	3.298073e+00	1.650227e+00
1.379798398781364e-01	2.474526e+00	9.159030e-01	3.300000e+00	3.298074e+00	1.650546e+00
1.409095273781364e-01	2.473934e+00	9.323025e-01	3.300000e+00	3.298073e+00	1.650227e+00
1.438392148781364e-01	2.474526e+00	9.485890e-01	3.300000e+00	3.298074e+00	1.650546e+00
1.467689023781364e-01	2.473934e+00	9.647635e-01	3.300000e+00	3.298073e+00	1.650227e+00
1.496985898781364e-01	2.474526e+00	9.808267e-01	3.300000e+00	3.298074e+00	1.650546e+00
1.526282773781364e-01	2.473935e+00	9.967792e-01	3.300000e+00	3.298073e+00	1.650227e+00
1.555579648781364e-01	2.474526e+00	1.012622e+00	3.300000e+00	3.298074e+00	1.650546e+00
1.584876523781364e-01	2.473935e+00	1.028356e+00	3.300000e+00	3.298074e+00	1.650227e+00
1.614173398781364e-01	2.474526e+00	1.043981e+00	3.300000e+00	3.298075e+00	1.650546e+00
1.643470273781364e-01	2.473935e+00	1.059499e+00	3.300000e+00	3.298074e+00	1.650227e+00
1.672767148781364e-01	2.474526e+00	1.074910e+00	3.300000e+00	3.298075e+00	1.650546e+00
1.702064023781364e-01	2.473935e+00	1.090214e+00	3.300000e+00	3.298074e+00	1.650227e+00
1.731360898781364e-01	2.474526e+00	1.105414e+00	3.300000e+00	3.298075e+00	1.650546e+00
1.760657773781364e-01	2.473935e+00	1.120509e+00	3.300000e+00	3.298074e+00	1.650227e+00
1.789954648781364e-01	2.474526e+00	1.135500e+00	3.300000e+00	3.298075e+00	1.650546e+00
1.819251523781364e-01	2.473935e+00	1.150388e+00	3.300000e+00	3.298074e+00	1.650227e+00
1.848548398781364e-01	2.474526e+00	1.165173e+00	3.300000e+00	3.298075e+00	1.650546e+00
1.877845273781364e-01	2.473935e+00	1.179856e+00	3.300000e+00	3.298074e+00	1.650227e+00
1.907142148781364e-01	2.474526e+00	1.194439e+00	3.300000e+00	3.298075e+00	1.650545e+00
1.936439023781364e-01	2.473935e+00	1.208921e+00	3.300000e+00	3.298074e+00	1.650227e+00
1.965735898781364e-01	2.474526e+00	1.223303e+00	3.300000e+00	3.298075e+00	1.650545e+00
1.995032773781364e-01	2.473935e+00	1.237586e+00	3.300000e+00	3.298074e+00	1.650228e+00
2.024329648781364e-01	2.474526e+00	1.251771e+00	3.300000e+00	3.298076e+00	1.650545e+00
2.053626523781364e-01	2.473935e+00	1.265858e+00	3.300000e+00	3.298074e+00	1.650228e+00
2.082923398781364e-01	2.474526e+00	1.279849e+00	3.300000e+00	3.298076e+00	1.650545e+00
2.112220273781364e-01	2.473936e+00	1.293743e+00	3.300000e+00	3.298075e+00	1.650228e+00
2.141517148781364e-01	2.474526e+00	1.307541e+00	3.300000e+00	3.298076e+00	1.650545e+00
2.170814023781364e-01	2.473936e+00	1.321244e+00	3.300000e+00	3.298075e+00	1.650228e+00
2.200110898781364e-01	2.474526e+00	1.334854e+00	3.300000e+00	3.298076e+00	1.650545e+00
2.229407773781364e-01	2.473936e+00	1.348369e+00	3.300000e+00	3.298075e+00	1.650228e+00
2.258704648781364e-01	2.474526e+00	1.361791e+00	3.300000e+00	3.298076e+00	1.650545e+00
2.288001523781364e-01	2.473936e+00	1.375121e+00	3.300000e+00	3.298075e+00	1.650228e+00
2.317298398781364e-01	2.474526e+00	1.388359e+00	3.300000e+00	3.298076e+00	1.650545e+00
2.346595273781364e-01	2.473936e+00	1.401506e+00	3.300000e+00	3.298075e+00	1.650228e+00
2.375892148781364e-01	2.474526e+00	1.414563e+00	3.300000e+00	3.298076e+00	1.650545e+00
2.405189023781364e-01	2.473936e+00	1.427529e+00	3.300000e+00	3.298075e+00	1.650228e+00
2.434485898781364e-01	2.474526e+00	1.440407e+00	3.300000e+00	3.298076e+00	1.650545e+00
2.463782773781364e-01	2.473936e+00	1.453195e+00	3.300000e+00	3.298075e+00	1.650228e+00
2.493079648781364e-01	2.474526e+00	1.465896e+00	3.300000e+00	3.298077e+00	1.650545e+00
2.522376523781363e-01	2.473936e+00	1.478509e+00	3.300000e+00	3.298075e+00	1.650228e+00
2.551673398781363e-01	2.474526e+00	1.491036e+00	3.300000e+00	3.298077e+00	1.650545e+00
2.580970273781363e-01	2.473936e+00	1.503476e+00	3.300000e+00	3.298076e+00	1.650228e+00
2.610267148781363e-01	2.474526e+00	1.515830e+00	3.300000e+00	3.298077e+00	1.650545e+00
2.639564023781363e-01	2.473936e+00	1.528100e+00	3.300000e+00	3.298076e+00	1.650228e+00
2.668860898781363e-01	2.474526e+00	1.540285e+00	3.300000e+00	3.298077e+00	1.650545e+00
2.698157773781363e-01	2.473937e+00	1.552386e+00	3.300000e+00	3.298076e+00	1.650228e+00
2.727454648781363e-01	2.474526e+00	1.564404e+00	3.300000e+00	3.298077e+00	1.650545e+00
2.756751523781363e-01	2.473937e+00	1.576339e+00	3.300000e+00	3.298076e+00	1.650228e+00
2.786048398781363e-01	2.474526e+00	1.588192e+00	3.300000e+00	3.298077e+00	1.650545e+00
2.815345273781363e-01	2.473937e+00	1.599963e+00	3.300000e+00	3.298076e+00	1.650228e+00
2.844642148781363e-01	2.474526e+00	1.611653e+00	3.300000e+00	3.298077e+00	1.650545e+00
2.873939023781363e-01	2.473937e+00	1.623263e+00	3.300000e+00	3.298076e+00	1.650228e+00
2.903235898781363e-01	2.474526e+00	1.634793e+00	3.300000e+00	3.298077e+00	1.650545e+00
2.932532773781363e-01	2.473937e+00	1.646243e+00	3.300000e+00	3.298076e+00	1.650228e+00
2.961829648781363e-01	2.474526e+00	1.657615e+00	3.300000e+00	3.298077e+00	1.650545e+00
2.991126523781363e-01	2.473937e+00	1.668908e+00	3.300000e+00	3.298076e+00	1.650228e+00
3.020423398781363e-01	2.474526e+00	1.680124e+00	3.300000e+00	3.298078e+00	1.650545e+00
3.049720273781363e-01	2.473937e+00	1.691262e+00	3.300000e+00	3.298076e+00	1.650228e+00
3.079017148781363e-01	2.474526e+00	1.702324e+00	3.300000e+00	3.298078e+00	1.650545e+00
3.108314023781363e-01	2.473937e+00	1.713310e+00	3.300000e+00	3.298076e+00	1.650228e+00
3.137610898781363e-01	2.474527e+00	1.724220e+00	3.300000e+00	3.298078e+00	1.650545e+00
3.166907773781363e-01	2.473937e+00	1.735054e+00	3.300000e+00	3.298077e+00	1.650228e+00
3.196204648781363e-01	2.474527e+00	1.745815e+00	3.300000e+00	3.298078e+00	1.650545e+00
3.225501523781363e-01	2.473937e+00	1.756501e+00	3.300000e+00	3.298077e+00	1.650228e+00
3.254798398781363e-01	2.474527e+00	1.767114e+00	3.300000e+00	3.298078e+00	1.650545e+00
3.284095273781363e-01	2.473937e+00	1.777653e+00	3.300000e+00	3.298077e+00	1.650228e+00
3.313392148781363e-01	2.474527e+00	1.788120e+00	3.300000e+00	3.298078e+00	1.650545e+00
3.342689023781363e-01	2.473937e+00	1.798515e+00	3.300000e+00	3.298077e+00	1.650228e+00
3.371985898781363e-01	2.474527e+00	1.808838e+00	3.300000e+00	3.298078e+00	1.650545e+00
3.401282773781363e-01	2.473938e+00	1.819091e+00	3.300000e+00	3.298077e+00	1.650228e+00
3.430579648781363e-01	2.474527e+00	1.829273e+00	3.300000e+00	3.298078e+00	1.650545e+00
3.459876523781363e-01	2.473938e+00	1.839384e+00	3.300000e+00	3.298077e+00	1.650228e+00
